
TD024 000:046 SEGGER J-Link V6.10i Log File (0001ms, 0020ms total)
TD024 000:046 DLL Compiled: Oct 25 2016 19:31:51 (0001ms, 0020ms total)
TD024 000:046 Logging started @ 2017-01-06 09:07 (0001ms, 0020ms total)
TD024 000:047 JLINK_SetWarnOutHandler(...) (0000ms, 0020ms total)
TD024 000:047 JLINK_OpenEx(...)
Firmware: J-Link ARM V8 compiled Nov 28 2014 13:44:46
Hardware: V8.00
S/N: 20151221
Feature(s): RDI,FlashDL,FlashBP,JFlash,GDBFULLWEBSRV Webserver running on local port 19080 (0016ms, 0036ms total)
TD024 000:047   returns O.K. (0016ms, 0036ms total)
TD024 000:063 JLINK_SetErrorOutHandler(...) (0000ms, 0036ms total)
TD024 000:063 JLINK_ExecCommand("ProjectFile = "C:\proj\stm32f4\LED\proj\JLinkSettings.ini"", ...).   returns 0x00 (0121ms, 0157ms total)
TD024 000:184 JLINK_ExecCommand("Device = STM32F407VG", ...). Device "STM32F407VG" selected.  returns 0x00 (0002ms, 0159ms total)
TD024 000:186 JLINK_ExecCommand("DisableConnectionTimeout", ...).   returns 0x01 (0000ms, 0159ms total)
TD024 000:186 JLINK_GetHardwareVersion()  returns 0x13880 (0000ms, 0159ms total)
TD024 000:186 JLINK_GetDLLVersion()  returns 61009 (0000ms, 0159ms total)
TD024 000:186 JLINK_GetFirmwareString(...) (0000ms, 0159ms total)
TD024 000:186 JLINK_GetDLLVersion()  returns 61009 (0000ms, 0159ms total)
TD024 000:186 JLINK_GetCompileDateTime() (0000ms, 0159ms total)
TD024 000:186 JLINK_GetFirmwareString(...) (0000ms, 0159ms total)
TD024 000:186 JLINK_GetHardwareVersion()  returns 0x13880 (0001ms, 0160ms total)
TD024 000:187 JLINK_TIF_Select(JLINKARM_TIF_JTAG)  returns 0x00 (0001ms, 0161ms total)
TD024 000:188 JLINK_SetSpeed(5000) (0000ms, 0161ms total)
TD024 000:188 JLINK_GetIdData(...) >0x2F8 JTAG>TotalIRLen = 9, IRPrint = 0x0011 >0x30 JTAG> >0x410 JTAG> >0x40 JTAG> >0x40 JTAG> >0x40 JTAG> >0x30 JTAG> >0x40 JTAG> >0x40 JTAG> >0x40 JTAG> >0x40 JTAG> >0x40 JTAG> >0x40 JTAG> >0x40 JTAG> >0x40 JTAG> >0x40 JTAG> >0x40 JTAG> >0x40 JTAG> >0x40 JTAG> >0x40 JTAG> >0x40 JTAG> >0x40 JTAG> >0x40 JTAG> >0x40 JTAG> >0x40 JTAG> >0x40 JTAG> >0x40 JTAG> >0x2F8 JTAG>TotalIRLen = 9, IRPrint = 0x0011 >0x30 JTAG> >0x410 JTAG> >0x70 JTAG> >0x50 JTAG> >0x40 JTAG>
 >0x50 JTAG>AP-IDR: 0x24770011, Type: AHB-APStart searching for Cortex-M ROM table with ROMTable[0] @ 0xE00FF000.ROMTable[1]: Cortex-M ROM table found. >0x80 JTAG> >0x40 JTAG> >0x30 JTAG> >0x40 JTAG> >0x40 JTAG> >0x30 JTAG> >0x40 JTAG> >0x50 JTAG>Found Cortex-M4 r0p1, Little endian. -- CPU_ReadMem(4 bytes @ 0xE000EDF0) -- CPU_WriteMem(4 bytes @ 0xE000EDF0) -- CPU_ReadMem(4 bytes @ 0xE0002000)FPUnit: 6 code (BP) slots and 2 literal slots -- CPU_ReadMem(4 bytes @ 0xE000EDFC)
 -- CPU_WriteMem(4 bytes @ 0xE000EDFC) -- CPU_ReadMem(4 bytes @ 0xE0001000) -- CPU_WriteMem(4 bytes @ 0xE0001000) -- CPU_ReadMem(4 bytes @ 0xE000ED88) -- CPU_WriteMem(4 bytes @ 0xE000ED88) -- CPU_ReadMem(4 bytes @ 0xE000ED88) -- CPU_WriteMem(4 bytes @ 0xE000ED88)CoreSight components:ROMTbl 0 @ E00FF000 -- CPU_ReadMem(16 bytes @ 0xE00FF000) -- CPU_ReadMem(16 bytes @ 0xE000EFF0) -- CPU_ReadMem(16 bytes @ 0xE000EFE0)ROMTbl 0 [0]: FFF0F000, CID: B105E00D, PID: 000BB00C SCS
 -- CPU_ReadMem(16 bytes @ 0xE0001FF0) -- CPU_ReadMem(16 bytes @ 0xE0001FE0)ROMTbl 0 [1]: FFF02000, CID: B105E00D, PID: 003BB002 DWT -- CPU_ReadMem(16 bytes @ 0xE0002FF0) -- CPU_ReadMem(16 bytes @ 0xE0002FE0)ROMTbl 0 [2]: FFF03000, CID: B105E00D, PID: 002BB003 FPB -- CPU_ReadMem(16 bytes @ 0xE0000FF0) -- CPU_ReadMem(16 bytes @ 0xE0000FE0)ROMTbl 0 [3]: FFF01000, CID: B105E00D, PID: 003BB001 ITM -- CPU_ReadMem(16 bytes @ 0xE00FF010) -- CPU_ReadMem(16 bytes @ 0xE0040FF0)
 -- CPU_ReadMem(16 bytes @ 0xE0040FE0)ROMTbl 0 [4]: FFF41000, CID: B105900D, PID: 000BB9A1 TPIU -- CPU_ReadMem(16 bytes @ 0xE0041FF0) -- CPU_ReadMem(16 bytes @ 0xE0041FE0)ROMTbl 0 [5]: FFF42000, CID: B105900D, PID: 000BB925 ETM ScanLen=9 NumDevices=2 aId[0]=0x4BA00477 aIrRead[0]=0 aScanLen[0]=0 aScanRead[0]=0 (0033ms, 0194ms total)
TD024 000:221 JLINK_JTAG_GetDeviceID(DeviceIndex = 0)  returns 0x4BA00477 (0001ms, 0195ms total)
TD024 000:222 JLINK_JTAG_GetDeviceInfo(DeviceIndex = 0)  returns 0x00 (0000ms, 0195ms total)
TD024 000:222 JLINK_JTAG_GetDeviceID(DeviceIndex = 1)  returns 0x6413041 (0000ms, 0195ms total)
TD024 000:222 JLINK_JTAG_GetDeviceInfo(DeviceIndex = 1)  returns 0x00 (0000ms, 0195ms total)
TD024 000:222 JLINK_GetDLLVersion()  returns 61009 (0000ms, 0195ms total)
TD024 000:222 JLINK_CORE_GetFound()  returns 0xE0000FF (0000ms, 0195ms total)
TD024 000:222 JLINK_GetDebugInfo(0x100) -- Value=0xE00FF003  returns 0x00 (0000ms, 0195ms total)
TD024 000:222 JLINK_GetDebugInfo(0x100) -- Value=0xE00FF003  returns 0x00 (0000ms, 0195ms total)
TD024 000:222 JLINK_GetDebugInfo(0x101) -- Value=0xE0041000  returns 0x00 (0000ms, 0195ms total)
TD024 000:222 JLINK_GetDebugInfo(0x102) -- Value=0x00000000  returns 0x00 (0000ms, 0195ms total)
TD024 000:222 JLINK_GetDebugInfo(0x103) -- Value=0xE0040000  returns 0x00 (0000ms, 0195ms total)
TD024 000:223 JLINK_GetDebugInfo(0x104) -- Value=0xE0000000  returns 0x00 (0000ms, 0196ms total)
TD024 000:223 JLINK_GetDebugInfo(0x105) -- Value=0xE0001000  returns 0x00 (0000ms, 0196ms total)
TD024 000:223 JLINK_GetDebugInfo(0x106) -- Value=0xE0002000  returns 0x00 (0000ms, 0196ms total)
TD024 000:223 JLINK_GetDebugInfo(0x107) -- Value=0xE000E000  returns 0x00 (0000ms, 0196ms total)
TD024 000:223 JLINK_GetDebugInfo(0x10C) -- Value=0xE000EDF0  returns 0x00 (0000ms, 0196ms total)
TD024 000:223 JLINK_ReadMemU32(0xE000EF40, 0x0001 Items, ...) -- CPU is running -- CPU_ReadMem(4 bytes @ 0xE000EF40) - Data: 21 00 11 10  returns 0x01 (0001ms, 0197ms total)
TD024 000:224 JLINK_ReadMemU32(0xE000EF44, 0x0001 Items, ...) -- CPU is running -- CPU_ReadMem(4 bytes @ 0xE000EF44) - Data: 11 00 00 11  returns 0x01 (0000ms, 0197ms total)
TD024 000:224 JLINK_ReadMemU32(0xE000ED00, 0x0001 Items, ...) -- CPU is running -- CPU_ReadMem(4 bytes @ 0xE000ED00) - Data: 41 C2 0F 41  returns 0x01 (0001ms, 0198ms total)
TD024 000:225 JLINK_SetResetType(JLINKARM_RESET_TYPE_NORMAL)  returns JLINKARM_RESET_TYPE_NORMAL (0000ms, 0198ms total)
TD024 000:225 JLINK_Reset() -- CPU is running -- CPU_WriteMem(4 bytes @ 0xE000EDF0) -- CPU is running -- CPU_WriteMem(4 bytes @ 0xE000EDFC) -- CPU is running -- CPU_WriteMem(4 bytes @ 0xE000ED0C) -- CPU is running -- CPU_ReadMem(4 bytes @ 0xE000EDF0) -- CPU is running -- CPU_ReadMem(4 bytes @ 0xE000EDF0) -- CPU is running -- CPU_WriteMem(4 bytes @ 0xE000EDF0) -- CPU is running -- CPU_WriteMem(4 bytes @ 0xE000EDFC) -- CPU is running -- CPU_ReadMem(4 bytes @ 0xE000EDF0) >0x80 JTAG> >0x40 JTAG> >0x30 JTAG>
 >0x40 JTAG> >0x50 JTAG> >0x40 JTAG> -- CPU_WriteMem(4 bytes @ 0xE000EDFC) -- CPU_WriteMem(4 bytes @ 0xE0001028) -- CPU_WriteMem(4 bytes @ 0xE0001038) -- CPU_WriteMem(4 bytes @ 0xE0001048) -- CPU_WriteMem(4 bytes @ 0xE0001058) -- CPU_WriteMem(4 bytes @ 0xE0002000) -- CPU_ReadMem(4 bytes @ 0xE000EDFC) -- CPU_ReadMem(4 bytes @ 0xE0001000) (0026ms, 0224ms total)
TD024 000:251 JLINK_ReadReg(R15 (PC))  returns 0x08000228 (0000ms, 0224ms total)
TD024 000:251 JLINK_ReadReg(XPSR)  returns 0x01000000 (0000ms, 0224ms total)
TD024 000:251 JLINK_Halt()  returns 0x00 (0000ms, 0224ms total)
TD024 000:251 JLINK_IsHalted()  returns TRUE (0000ms, 0224ms total)
TD024 000:252 JLINK_ReadMemU32(0xE000EDF0, 0x0001 Items, ...) -- CPU_ReadMem(4 bytes @ 0xE000EDF0) - Data: 03 00 03 00  returns 0x01 (0000ms, 0224ms total)
TD024 000:252 JLINK_WriteU32(0xE000EDF0, 0xA05F0003) -- CPU_WriteMem(4 bytes @ 0xE000EDF0)  returns 0x00 (0001ms, 0225ms total)
TD024 000:253 JLINK_WriteU32(0xE000EDFC, 0x01000000) -- CPU_WriteMem(4 bytes @ 0xE000EDFC)  returns 0x00 (0001ms, 0226ms total)
TD024 000:254 JLINK_GetHWStatus(...)  returns 0x00 (0000ms, 0226ms total)
TD024 000:255 JLINK_GetNumBPUnits(Type = 0xFFFFFF00)  returns 0x06 (0000ms, 0226ms total)
TD024 000:255 JLINK_GetNumBPUnits(Type = 0xF0)  returns 0x2000 (0000ms, 0226ms total)
TD024 000:255 JLINK_GetNumWPUnits()  returns 0x04 (0000ms, 0226ms total)
TD024 000:255 JLINK_GetSpeed()  returns 0x12C0 (0000ms, 0226ms total)
TD024 000:255 JLINK_ReadMemU32(0xE000E004, 0x0001 Items, ...) -- CPU_ReadMem(4 bytes @ 0xE000E004) - Data: 02 00 00 00  returns 0x01 (0001ms, 0227ms total)
TD024 000:256 JLINK_ReadMemU32(0xE000E004, 0x0001 Items, ...) -- CPU_ReadMem(4 bytes @ 0xE000E004) - Data: 02 00 00 00  returns 0x01 (0000ms, 0227ms total)
TD024 000:256 JLINK_WriteMem(0xE0001000, 0x001C Bytes, ...) - Data: 01 00 00 00 00 00 00 00 00 00 00 00 00 00 00 00 ... -- CPU_WriteMem(28 bytes @ 0xE0001000)  returns 0x1C (0002ms, 0229ms total)
TD024 000:258 JLINK_ReadMem (0xE0001000, 0x001C Bytes, ...) -- CPU_ReadMem(28 bytes @ 0xE0001000) - Data: 01 00 00 40 00 00 00 00 00 00 00 00 00 00 00 00 ...  returns 0x00 (0001ms, 0230ms total)
TD024 000:259 JLINK_ReadReg(R15 (PC))  returns 0x08000228 (0000ms, 0230ms total)
TD024 000:259 JLINK_ReadReg(XPSR)  returns 0x01000000 (0000ms, 0230ms total)
TD024 000:337 JLINK_SetResetType(JLINKARM_RESET_TYPE_NORMAL)  returns JLINKARM_RESET_TYPE_NORMAL (0000ms, 0230ms total)
TD024 000:337 JLINK_Reset() -- CPU_WriteMem(4 bytes @ 0xE000EDF0) -- CPU_WriteMem(4 bytes @ 0xE000EDFC) -- CPU_WriteMem(4 bytes @ 0xE000ED0C) -- CPU_ReadMem(4 bytes @ 0xE000EDF0) -- CPU_ReadMem(4 bytes @ 0xE000EDF0) -- CPU_WriteMem(4 bytes @ 0xE000EDF0) -- CPU_WriteMem(4 bytes @ 0xE000EDFC) -- CPU is running -- CPU_ReadMem(4 bytes @ 0xE000EDF0) >0x80 JTAG> >0x40 JTAG> >0x30 JTAG> >0x40 JTAG> >0x50 JTAG> >0x40 JTAG> -- CPU_WriteMem(4 bytes @ 0xE000EDFC) -- CPU_WriteMem(4 bytes @ 0xE0001028)
 -- CPU_WriteMem(4 bytes @ 0xE0001038) -- CPU_WriteMem(4 bytes @ 0xE0001048) -- CPU_WriteMem(4 bytes @ 0xE0001058) -- CPU_WriteMem(4 bytes @ 0xE0002000) -- CPU_ReadMem(4 bytes @ 0xE000EDFC) -- CPU_ReadMem(4 bytes @ 0xE0001000) (0026ms, 0256ms total)
TD024 000:363 JLINK_ReadReg(R15 (PC))  returns 0x08000228 (0000ms, 0256ms total)
TD024 000:363 JLINK_ReadReg(XPSR)  returns 0x01000000 (0000ms, 0256ms total)
TD024 000:364 JLINK_ReadMem (0x08000188, 0x003C Bytes, ...) -- CPU_ReadMem(128 bytes @ 0x08000180) -- Updating C cache (128 bytes @ 0x08000180) -- Read from C cache (60 bytes @ 0x08000188) - Data: 00 F0 02 F8 00 F0 3C F8 0A A0 90 E8 00 0C 82 44 ...  returns 0x00 (0002ms, 0258ms total)
TD024 000:366 JLINK_ReadMem (0x080001C4, 0x003C Bytes, ...) -- Read from C cache (60 bytes @ 0x080001C4) - Data: 10 3A 24 BF 78 C8 78 C1 FA D8 52 07 24 BF 30 C8 ...  returns 0x00 (0000ms, 0258ms total)
TD024 000:366 JLINK_ReadMem (0x08000200, 0x003C Bytes, ...) -- CPU_ReadMem(64 bytes @ 0x08000200) -- Updating C cache (64 bytes @ 0x08000200) -- Read from C cache (60 bytes @ 0x08000200) - Data: 2C FA 1F BD 10 B5 10 BD 00 F0 39 F8 11 46 FF F7 ...  returns 0x00 (0001ms, 0259ms total)
TD024 000:522 JLINK_ReadMem (0x40020000, 0x0014 Bytes, ...) -- CPU_ReadMem(20 bytes @ 0x40020000) - Data: 00 00 00 A8 00 00 00 A8 00 00 00 A8 00 00 00 A8 ...  returns 0x00 (0001ms, 0260ms total)
TD024 000:523 JLINK_ReadMem (0x40020014, 0x0004 Bytes, ...) -- CPU_ReadMem(4 bytes @ 0x40020014) - Data: 00 00 00 A8  returns 0x00 (0000ms, 0260ms total)
TD024 000:523 JLINK_ReadMem (0x4002001C, 0x0008 Bytes, ...) -- CPU_ReadMem(8 bytes @ 0x4002001C) - Data: 00 00 00 A8 00 00 00 A8  returns 0x00 (0001ms, 0261ms total)
TD024 000:524 JLINK_ReadMem (0x40020024, 0x0004 Bytes, ...) -- CPU_ReadMem(4 bytes @ 0x40020024) - Data: 00 00 00 A8  returns 0x00 (0001ms, 0262ms total)
TD024 000:612 JLINK_ReadMem (0x40020800, 0x0014 Bytes, ...) -- CPU_ReadMem(20 bytes @ 0x40020800) - Data: 00 00 00 00 00 00 00 00 00 00 00 00 00 00 00 00 ...  returns 0x00 (0001ms, 0263ms total)
TD024 000:614 JLINK_ReadMem (0x40020814, 0x0004 Bytes, ...) -- CPU_ReadMem(4 bytes @ 0x40020814) - Data: 00 00 00 00  returns 0x00 (0001ms, 0264ms total)
TD024 000:615 JLINK_ReadMem (0x4002081C, 0x0008 Bytes, ...) -- CPU_ReadMem(8 bytes @ 0x4002081C) - Data: 00 00 00 00 00 00 00 00  returns 0x00 (0000ms, 0264ms total)
TD024 000:615 JLINK_ReadMem (0x40020824, 0x0004 Bytes, ...) -- CPU_ReadMem(4 bytes @ 0x40020824) - Data: 00 00 00 00  returns 0x00 (0001ms, 0265ms total)
TD024 000:698 JLINK_ReadMem (0x40023800, 0x0018 Bytes, ...) -- CPU_ReadMem(24 bytes @ 0x40023800) - Data: 83 84 00 00 10 30 00 24 00 00 00 00 00 00 00 00 ...  returns 0x00 (0001ms, 0266ms total)
TD024 000:699 JLINK_ReadMem (0x40023818, 0x0004 Bytes, ...) -- CPU_ReadMem(4 bytes @ 0x40023818) - Data: 00 00 00 00  returns 0x00 (0002ms, 0268ms total)
TD024 000:701 JLINK_ReadMem (0x40023820, 0x0004 Bytes, ...) -- CPU_ReadMem(4 bytes @ 0x40023820) - Data: 00 00 00 00  returns 0x00 (0000ms, 0268ms total)
TD024 000:701 JLINK_ReadMem (0x40023824, 0x0004 Bytes, ...) -- CPU_ReadMem(4 bytes @ 0x40023824) - Data: 00 00 00 00  returns 0x00 (0000ms, 0268ms total)
TD024 000:701 JLINK_ReadMem (0x40023830, 0x0008 Bytes, ...) -- CPU_ReadMem(8 bytes @ 0x40023830) - Data: 00 00 10 00 00 00 00 00  returns 0x00 (0001ms, 0269ms total)
TD024 000:702 JLINK_ReadMem (0x40023838, 0x0004 Bytes, ...) -- CPU_ReadMem(4 bytes @ 0x40023838) - Data: 00 00 00 00  returns 0x00 (0000ms, 0269ms total)
TD024 000:704 JLINK_ReadMem (0x40023840, 0x0004 Bytes, ...) -- CPU_ReadMem(4 bytes @ 0x40023840) - Data: 00 00 00 00  returns 0x00 (0000ms, 0271ms total)
TD024 000:704 JLINK_ReadMem (0x40023844, 0x0004 Bytes, ...) -- CPU_ReadMem(4 bytes @ 0x40023844) - Data: 00 00 00 00  returns 0x00 (0001ms, 0272ms total)
TD024 000:705 JLINK_ReadMem (0x40023850, 0x0008 Bytes, ...) -- CPU_ReadMem(8 bytes @ 0x40023850) - Data: FF 91 67 7E F1 00 00 00  returns 0x00 (0001ms, 0273ms total)
TD024 000:706 JLINK_ReadMem (0x40023858, 0x0004 Bytes, ...) -- CPU_ReadMem(4 bytes @ 0x40023858) - Data: 01 00 00 00  returns 0x00 (0000ms, 0273ms total)
TD024 000:706 JLINK_ReadMem (0x40023860, 0x0004 Bytes, ...) -- CPU_ReadMem(4 bytes @ 0x40023860) - Data: FF C9 FE 36  returns 0x00 (0001ms, 0274ms total)
TD024 000:707 JLINK_ReadMem (0x40023864, 0x0004 Bytes, ...) -- CPU_ReadMem(4 bytes @ 0x40023864) - Data: 33 5F 07 00  returns 0x00 (0001ms, 0275ms total)
TD024 000:708 JLINK_ReadMem (0x40023870, 0x0004 Bytes, ...) -- CPU_ReadMem(4 bytes @ 0x40023870) - Data: 00 00 00 00  returns 0x00 (0000ms, 0275ms total)
TD024 000:708 JLINK_ReadMem (0x40023874, 0x0004 Bytes, ...) -- CPU_ReadMem(4 bytes @ 0x40023874) - Data: 00 00 00 1E  returns 0x00 (0001ms, 0276ms total)
TD024 000:709 JLINK_ReadMem (0x40023880, 0x0004 Bytes, ...) -- CPU_ReadMem(4 bytes @ 0x40023880) - Data: 00 00 00 00  returns 0x00 (0001ms, 0277ms total)
TD024 000:710 JLINK_ReadMem (0x40023884, 0x0004 Bytes, ...) -- CPU_ReadMem(4 bytes @ 0x40023884) - Data: 00 30 00 20  returns 0x00 (0000ms, 0277ms total)
TD024 002:220 JLINK_ReadMem (0x40020818, 0x00EA Bytes, ...) -- CPU_ReadMem(234 bytes @ 0x40020818) - Data: 00 00 00 00 00 00 00 00 00 00 00 00 00 00 00 00 ...  returns 0x00 (0002ms, 0279ms total)
TD024 002:227 JLINK_ReadMem (0x40020818, 0x00EA Bytes, ...) -- CPU_ReadMem(234 bytes @ 0x40020818) - Data: 00 00 00 00 00 00 00 00 00 00 00 00 00 00 00 00 ...  returns 0x00 (0003ms, 0282ms total)
TD024 002:230 JLINK_ReadMem (0x40020818, 0x00EA Bytes, ...) -- CPU_ReadMem(234 bytes @ 0x40020818) - Data: 00 00 00 00 00 00 00 00 00 00 00 00 00 00 00 00 ...  returns 0x00 (0003ms, 0285ms total)
TD024 003:514 JLINK_ReadMem (0x40020818, 0x00EA Bytes, ...) -- CPU_ReadMem(234 bytes @ 0x40020818) - Data: 00 00 00 00 00 00 00 00 00 00 00 00 00 00 00 00 ...  returns 0x00 (0003ms, 0288ms total)
TD024 003:520 JLINK_ReadMem (0x40020818, 0x00EA Bytes, ...) -- CPU_ReadMem(234 bytes @ 0x40020818) - Data: 00 00 00 00 00 00 00 00 00 00 00 00 00 00 00 00 ...  returns 0x00 (0002ms, 0290ms total)
T123E0 003:539 JLINK_SetBPEx(Addr = 0x08000634, Type = 0xFFFFFFF2)  returns 0x00000001 (0000ms, 0290ms total)
T123E0 003:539 JLINK_SetBPEx(Addr = 0x08000462, Type = 0xFFFFFFF2)  returns 0x00000002 (0000ms, 0290ms total)
T123E0 003:539 JLINK_SetBPEx(Addr = 0x0800063E, Type = 0xFFFFFFF2)  returns 0x00000003 (0000ms, 0290ms total)
T123E0 003:540 JLINK_SetBPEx(Addr = 0x0800064C, Type = 0xFFFFFFF2)  returns 0x00000004 (0000ms, 0291ms total)
T123E0 003:540 JLINK_Go() -- CPU_ReadMem(4 bytes @ 0xE0001000) -- CPU_WriteMem(4 bytes @ 0xE0002008) -- CPU_WriteMem(4 bytes @ 0xE000200C) -- CPU_WriteMem(4 bytes @ 0xE0002010) -- CPU_WriteMem(4 bytes @ 0xE0002014) -- CPU_WriteMem(4 bytes @ 0xE0002018) -- CPU_WriteMem(4 bytes @ 0xE000201C) -- CPU_WriteMem(4 bytes @ 0xE0001004) (0004ms, 0295ms total)
T123E0 003:646 JLINK_IsHalted()  returns TRUE (0003ms, 0298ms total)
T123E0 003:649 JLINK_Halt()  returns 0x00 (0000ms, 0295ms total)
T123E0 003:649 JLINK_IsHalted()  returns TRUE (0000ms, 0295ms total)
T123E0 003:649 JLINK_IsHalted()  returns TRUE (0000ms, 0295ms total)
T123E0 003:649 JLINK_IsHalted()  returns TRUE (0000ms, 0295ms total)
T123E0 003:649 JLINK_ReadReg(R15 (PC))  returns 0x08000634 (0000ms, 0295ms total)
T123E0 003:649 JLINK_ReadReg(XPSR)  returns 0x21000000 (0000ms, 0295ms total)
T123E0 003:649 JLINK_ClrBPEx(BPHandle = 0x00000001)  returns 0x00 (0000ms, 0295ms total)
T123E0 003:649 JLINK_ClrBPEx(BPHandle = 0x00000002)  returns 0x00 (0000ms, 0295ms total)
T123E0 003:649 JLINK_ClrBPEx(BPHandle = 0x00000003)  returns 0x00 (0000ms, 0295ms total)
T123E0 003:649 JLINK_ClrBPEx(BPHandle = 0x00000004)  returns 0x00 (0000ms, 0295ms total)
T123E0 003:649 JLINK_ReadMemU32(0xE000ED30, 0x0001 Items, ...) -- CPU_ReadMem(4 bytes @ 0xE000ED30) - Data: 03 00 00 00  returns 0x01 (0001ms, 0296ms total)
T123E0 003:650 JLINK_ReadMemU32(0xE0001028, 0x0001 Items, ...) -- CPU_ReadMem(4 bytes @ 0xE0001028) - Data: 00 00 00 00  returns 0x01 (0001ms, 0297ms total)
T123E0 003:651 JLINK_ReadMemU32(0xE0001038, 0x0001 Items, ...) -- CPU_ReadMem(4 bytes @ 0xE0001038) - Data: 00 02 00 00  returns 0x01 (0000ms, 0297ms total)
T123E0 003:651 JLINK_ReadMemU32(0xE0001048, 0x0001 Items, ...) -- CPU_ReadMem(4 bytes @ 0xE0001048) - Data: 00 00 00 00  returns 0x01 (0001ms, 0298ms total)
T123E0 003:652 JLINK_ReadMemU32(0xE0001058, 0x0001 Items, ...) -- CPU_ReadMem(4 bytes @ 0xE0001058) - Data: 00 00 00 00  returns 0x01 (0001ms, 0299ms total)
T123E0 003:653 JLINK_ReadReg(R0)  returns 0x20000078 (0000ms, 0299ms total)
T123E0 003:653 JLINK_ReadReg(R1)  returns 0x20000278 (0001ms, 0300ms total)
T123E0 003:654 JLINK_ReadReg(R2)  returns 0x20000278 (0000ms, 0300ms total)
T123E0 003:654 JLINK_ReadReg(R3)  returns 0x20000278 (0000ms, 0300ms total)
T123E0 003:654 JLINK_ReadReg(R4)  returns 0x00000000 (0000ms, 0300ms total)
T123E0 003:654 JLINK_ReadReg(R5)  returns 0x20000014 (0000ms, 0300ms total)
T123E0 003:654 JLINK_ReadReg(R6)  returns 0x00000000 (0000ms, 0300ms total)
T123E0 003:654 JLINK_ReadReg(R7)  returns 0x00000000 (0000ms, 0300ms total)
T123E0 003:654 JLINK_ReadReg(R8)  returns 0x00000000 (0000ms, 0300ms total)
T123E0 003:654 JLINK_ReadReg(R9)  returns 0x00000000 (0000ms, 0300ms total)
T123E0 003:654 JLINK_ReadReg(R10)  returns 0x0800068C (0000ms, 0300ms total)
T123E0 003:654 JLINK_ReadReg(R11)  returns 0x00000000 (0000ms, 0300ms total)
T123E0 003:654 JLINK_ReadReg(R12)  returns 0x20000054 (0000ms, 0300ms total)
T123E0 003:654 JLINK_ReadReg(R13 (SP))  returns 0x20000678 (0001ms, 0301ms total)
T123E0 003:655 JLINK_ReadReg(R14)  returns 0x08000217 (0000ms, 0301ms total)
T123E0 003:655 JLINK_ReadReg(R15 (PC))  returns 0x08000634 (0000ms, 0301ms total)
T123E0 003:655 JLINK_ReadReg(XPSR)  returns 0x21000000 (0000ms, 0301ms total)
T123E0 003:655 JLINK_ReadReg(MSP)  returns 0x20000678 (0000ms, 0301ms total)
T123E0 003:655 JLINK_ReadReg(PSP)  returns 0x00000000 (0000ms, 0301ms total)
T123E0 003:655 JLINK_ReadReg(CFBP)  returns 0x04000000 (0000ms, 0301ms total)
T123E0 003:655 JLINK_ReadReg(FPSCR)  returns 0x03000000 (0005ms, 0306ms total)
T123E0 003:660 JLINK_ReadReg(FPS0)  returns 0x00000000 (0000ms, 0306ms total)
T123E0 003:660 JLINK_ReadReg(FPS1)  returns 0x00000000 (0000ms, 0306ms total)
T123E0 003:660 JLINK_ReadReg(FPS2)  returns 0x00000000 (0000ms, 0306ms total)
T123E0 003:660 JLINK_ReadReg(FPS3)  returns 0x00000000 (0000ms, 0306ms total)
T123E0 003:660 JLINK_ReadReg(FPS4)  returns 0x00000000 (0000ms, 0306ms total)
T123E0 003:660 JLINK_ReadReg(FPS5)  returns 0x00000000 (0000ms, 0306ms total)
T123E0 003:660 JLINK_ReadReg(FPS6)  returns 0x00000000 (0001ms, 0307ms total)
T123E0 003:661 JLINK_ReadReg(FPS7)  returns 0x00000000 (0000ms, 0307ms total)
T123E0 003:661 JLINK_ReadReg(FPS8)  returns 0x00000000 (0000ms, 0307ms total)
T123E0 003:661 JLINK_ReadReg(FPS9)  returns 0x00000000 (0000ms, 0307ms total)
T123E0 003:661 JLINK_ReadReg(FPS10)  returns 0x00000000 (0000ms, 0307ms total)
T123E0 003:661 JLINK_ReadReg(FPS11)  returns 0x00000000 (0000ms, 0307ms total)
T123E0 003:661 JLINK_ReadReg(FPS12)  returns 0x00000000 (0000ms, 0307ms total)
T123E0 003:661 JLINK_ReadReg(FPS13)  returns 0x00000000 (0000ms, 0307ms total)
T123E0 003:661 JLINK_ReadReg(FPS14)  returns 0x00000000 (0000ms, 0307ms total)
T123E0 003:661 JLINK_ReadReg(FPS15)  returns 0x00000000 (0000ms, 0307ms total)
T123E0 003:661 JLINK_ReadReg(FPS16)  returns 0x00000000 (0000ms, 0307ms total)
T123E0 003:661 JLINK_ReadReg(FPS17)  returns 0x00000000 (0000ms, 0307ms total)
T123E0 003:661 JLINK_ReadReg(FPS18)  returns 0x00000000 (0000ms, 0307ms total)
T123E0 003:661 JLINK_ReadReg(FPS19)  returns 0x00000000 (0001ms, 0308ms total)
T123E0 003:662 JLINK_ReadReg(FPS20)  returns 0x00000000 (0000ms, 0308ms total)
T123E0 003:662 JLINK_ReadReg(FPS21)  returns 0x00000000 (0000ms, 0308ms total)
T123E0 003:662 JLINK_ReadReg(FPS22)  returns 0x00000000 (0000ms, 0308ms total)
T123E0 003:662 JLINK_ReadReg(FPS23)  returns 0x00000000 (0000ms, 0308ms total)
T123E0 003:662 JLINK_ReadReg(FPS24)  returns 0x00000000 (0000ms, 0308ms total)
T123E0 003:662 JLINK_ReadReg(FPS25)  returns 0x00000000 (0000ms, 0308ms total)
T123E0 003:662 JLINK_ReadReg(FPS26)  returns 0x00000000 (0000ms, 0308ms total)
T123E0 003:662 JLINK_ReadReg(FPS27)  returns 0x00000000 (0000ms, 0308ms total)
T123E0 003:662 JLINK_ReadReg(FPS28)  returns 0x00000000 (0000ms, 0308ms total)
T123E0 003:662 JLINK_ReadReg(FPS29)  returns 0x00000000 (0000ms, 0308ms total)
T123E0 003:662 JLINK_ReadReg(FPS30)  returns 0x00000000 (0000ms, 0308ms total)
T123E0 003:662 JLINK_ReadReg(FPS31)  returns 0x00000000 (0000ms, 0308ms total)
TD024 003:663 JLINK_ReadMem (0x00000000, 0x0001 Bytes, ...) -- CPU_ReadMem(4 bytes @ 0x00000004) -- CPU_ReadMem(64 bytes @ 0x08000000) -- Updating C cache (64 bytes @ 0x08000000) -- Read from C cache (1 bytes @ 0x08000000) - Data: 78  returns 0x00 (0001ms, 0310ms total)
TD024 003:670 JLINK_ReadMem (0x40020818, 0x00EA Bytes, ...) -- CPU_ReadMem(234 bytes @ 0x40020818) - Data: 00 00 00 00 00 00 00 00 00 00 00 00 00 00 00 00 ...  returns 0x00 (0002ms, 0312ms total)
TD024 003:673 JLINK_ReadMem (0x40020000, 0x0014 Bytes, ...) -- CPU_ReadMem(20 bytes @ 0x40020000) - Data: 00 00 00 A8 00 00 00 A8 00 00 00 A8 00 00 00 A8 ...  returns 0x00 (0001ms, 0313ms total)
TD024 003:674 JLINK_ReadMem (0x40020014, 0x0004 Bytes, ...) -- CPU_ReadMem(4 bytes @ 0x40020014) - Data: 00 00 00 A8  returns 0x00 (0000ms, 0313ms total)
TD024 003:674 JLINK_ReadMem (0x4002001C, 0x0008 Bytes, ...) -- CPU_ReadMem(8 bytes @ 0x4002001C) - Data: 00 00 00 A8 00 00 00 A8  returns 0x00 (0001ms, 0314ms total)
TD024 003:675 JLINK_ReadMem (0x40020024, 0x0004 Bytes, ...) -- CPU_ReadMem(4 bytes @ 0x40020024) - Data: 00 00 00 A8  returns 0x00 (0001ms, 0315ms total)
TD024 003:677 JLINK_ReadMem (0x40023800, 0x0018 Bytes, ...) -- CPU_ReadMem(24 bytes @ 0x40023800) - Data: 83 84 03 03 08 54 40 07 0A 94 00 00 00 00 00 00 ...  returns 0x00 (0001ms, 0316ms total)
TD024 003:678 JLINK_ReadMem (0x40023818, 0x0004 Bytes, ...) -- CPU_ReadMem(4 bytes @ 0x40023818) - Data: 00 00 00 00  returns 0x00 (0000ms, 0316ms total)
TD024 003:679 JLINK_ReadMem (0x40023820, 0x0004 Bytes, ...) -- CPU_ReadMem(4 bytes @ 0x40023820) - Data: 00 00 00 00  returns 0x00 (0000ms, 0317ms total)
TD024 003:679 JLINK_ReadMem (0x40023824, 0x0004 Bytes, ...) -- CPU_ReadMem(4 bytes @ 0x40023824) - Data: 00 00 00 00  returns 0x00 (0001ms, 0318ms total)
TD024 003:680 JLINK_ReadMem (0x40023830, 0x0008 Bytes, ...) -- CPU_ReadMem(8 bytes @ 0x40023830) - Data: 00 00 10 00 00 00 00 00  returns 0x00 (0000ms, 0318ms total)
TD024 003:680 JLINK_ReadMem (0x40023838, 0x0004 Bytes, ...) -- CPU_ReadMem(4 bytes @ 0x40023838) - Data: 00 00 00 00  returns 0x00 (0001ms, 0319ms total)
TD024 003:681 JLINK_ReadMem (0x40023840, 0x0004 Bytes, ...) -- CPU_ReadMem(4 bytes @ 0x40023840) - Data: 00 00 00 10  returns 0x00 (0001ms, 0320ms total)
TD024 003:682 JLINK_ReadMem (0x40023844, 0x0004 Bytes, ...) -- CPU_ReadMem(4 bytes @ 0x40023844) - Data: 00 00 00 00  returns 0x00 (0000ms, 0320ms total)
TD024 003:682 JLINK_ReadMem (0x40023850, 0x0008 Bytes, ...) -- CPU_ReadMem(8 bytes @ 0x40023850) - Data: FF 91 67 7E F1 00 00 00  returns 0x00 (0001ms, 0321ms total)
TD024 003:683 JLINK_ReadMem (0x40023858, 0x0004 Bytes, ...) -- CPU_ReadMem(4 bytes @ 0x40023858) - Data: 01 00 00 00  returns 0x00 (0000ms, 0321ms total)
TD024 003:683 JLINK_ReadMem (0x40023860, 0x0004 Bytes, ...) -- CPU_ReadMem(4 bytes @ 0x40023860) - Data: FF C9 FE 36  returns 0x00 (0001ms, 0322ms total)
TD024 003:684 JLINK_ReadMem (0x40023864, 0x0004 Bytes, ...) -- CPU_ReadMem(4 bytes @ 0x40023864) - Data: 33 5F 07 00  returns 0x00 (0001ms, 0323ms total)
TD024 003:685 JLINK_ReadMem (0x40023870, 0x0004 Bytes, ...) -- CPU_ReadMem(4 bytes @ 0x40023870) - Data: 00 00 00 00  returns 0x00 (0001ms, 0324ms total)
TD024 003:686 JLINK_ReadMem (0x40023874, 0x0004 Bytes, ...) -- CPU_ReadMem(4 bytes @ 0x40023874) - Data: 00 00 00 1E  returns 0x00 (0000ms, 0324ms total)
TD024 003:686 JLINK_ReadMem (0x40023880, 0x0004 Bytes, ...) -- CPU_ReadMem(4 bytes @ 0x40023880) - Data: 00 00 00 00  returns 0x00 (0001ms, 0325ms total)
TD024 003:687 JLINK_ReadMem (0x40023884, 0x0004 Bytes, ...) -- CPU_ReadMem(4 bytes @ 0x40023884) - Data: 00 30 00 20  returns 0x00 (0001ms, 0326ms total)
TD024 003:692 JLINK_ReadMem (0x40020800, 0x0014 Bytes, ...) -- CPU_ReadMem(20 bytes @ 0x40020800) - Data: 00 00 00 00 00 00 00 00 00 00 00 00 00 00 00 00 ...  returns 0x00 (0000ms, 0326ms total)
TD024 003:692 JLINK_ReadMem (0x40020814, 0x0004 Bytes, ...) -- CPU_ReadMem(4 bytes @ 0x40020814) - Data: 00 00 00 00  returns 0x00 (0001ms, 0327ms total)
TD024 003:693 JLINK_ReadMem (0x4002081C, 0x0008 Bytes, ...) -- CPU_ReadMem(8 bytes @ 0x4002081C) - Data: 00 00 00 00 00 00 00 00  returns 0x00 (0001ms, 0328ms total)
TD024 003:694 JLINK_ReadMem (0x40020824, 0x0004 Bytes, ...) -- CPU_ReadMem(4 bytes @ 0x40020824) - Data: 00 00 00 00  returns 0x00 (0000ms, 0328ms total)
TD024 003:699 JLINK_ReadMem (0x08000534, 0x003C Bytes, ...) -- CPU_ReadMem(128 bytes @ 0x08000500) -- Updating C cache (128 bytes @ 0x08000500) -- Read from C cache (60 bytes @ 0x08000534) - Data: 0A 68 92 01 FC D5 0D 4A 40 F2 05 61 11 60 01 68 ...  returns 0x00 (0002ms, 0330ms total)
TD024 003:701 JLINK_ReadMem (0x08000574, 0x003C Bytes, ...) -- CPU_ReadMem(64 bytes @ 0x08000580) -- Updating C cache (64 bytes @ 0x08000580) -- Read from C cache (60 bytes @ 0x08000574) - Data: 40 1E B0 F1 80 7F 01 D3 01 20 70 47 4F F0 E0 21 ...  returns 0x00 (0001ms, 0331ms total)
TD024 003:702 JLINK_ReadMem (0x080005B0, 0x003C Bytes, ...) -- CPU_ReadMem(64 bytes @ 0x080005C0) -- Updating C cache (64 bytes @ 0x080005C0) -- Read from C cache (60 bytes @ 0x080005B0) - Data: 12 48 10 B5 01 68 41 F4 70 01 01 60 10 48 01 68 ...  returns 0x00 (0002ms, 0333ms total)
TD024 003:704 JLINK_ReadMem (0x080005EC, 0x003C Bytes, ...) -- CPU_ReadMem(64 bytes @ 0x08000600) -- Updating C cache (64 bytes @ 0x08000600) -- Read from C cache (60 bytes @ 0x080005EC) - Data: 69 FF 03 49 4F F0 00 60 80 39 08 60 10 BD 00 00 ...  returns 0x00 (0001ms, 0334ms total)
TD024 003:705 JLINK_ReadMem (0x08000628, 0x003C Bytes, ...) -- CPU_ReadMem(64 bytes @ 0x08000640) -- Updating C cache (64 bytes @ 0x08000640) -- Read from C cache (60 bytes @ 0x08000628) - Data: 10 BD 00 00 10 00 00 20 40 90 02 00 00 24 FF F7 ...  returns 0x00 (0001ms, 0335ms total)
T123E0 005:384 JLINK_SetBPEx(Addr = 0x08000462, Type = 0xFFFFFFF2)  returns 0x00000005 (0000ms, 0335ms total)
T123E0 005:384 JLINK_SetBPEx(Addr = 0x0800063E, Type = 0xFFFFFFF2)  returns 0x00000006 (0000ms, 0335ms total)
T123E0 005:384 JLINK_SetBPEx(Addr = 0x0800064C, Type = 0xFFFFFFF2)  returns 0x00000007 (0000ms, 0335ms total)
T123E0 005:384 JLINK_Go() -- CPU_ReadMem(4 bytes @ 0xE0001000) -- CPU_WriteMem(4 bytes @ 0xE0002008) -- CPU_WriteMem(4 bytes @ 0xE000200C) -- CPU_WriteMem(4 bytes @ 0xE0002010) -- CPU_WriteMem(4 bytes @ 0xE0002014) (0003ms, 0338ms total)
T123E0 005:488 JLINK_IsHalted()  returns TRUE (0003ms, 0341ms total)
T123E0 005:491 JLINK_Halt()  returns 0x00 (0000ms, 0338ms total)
T123E0 005:491 JLINK_IsHalted()  returns TRUE (0000ms, 0338ms total)
T123E0 005:491 JLINK_IsHalted()  returns TRUE (0000ms, 0338ms total)
T123E0 005:491 JLINK_IsHalted()  returns TRUE (0000ms, 0338ms total)
T123E0 005:491 JLINK_ReadReg(R15 (PC))  returns 0x08000462 (0000ms, 0338ms total)
T123E0 005:491 JLINK_ReadReg(XPSR)  returns 0x61000000 (0000ms, 0338ms total)
T123E0 005:491 JLINK_ClrBPEx(BPHandle = 0x00000005)  returns 0x00 (0001ms, 0339ms total)
T123E0 005:492 JLINK_ClrBPEx(BPHandle = 0x00000006)  returns 0x00 (0000ms, 0339ms total)
T123E0 005:492 JLINK_ClrBPEx(BPHandle = 0x00000007)  returns 0x00 (0000ms, 0339ms total)
T123E0 005:492 JLINK_ReadMemU32(0xE000ED30, 0x0001 Items, ...) -- CPU_ReadMem(4 bytes @ 0xE000ED30) - Data: 03 00 00 00  returns 0x01 (0001ms, 0340ms total)
T123E0 005:493 JLINK_ReadMemU32(0xE0001028, 0x0001 Items, ...) -- CPU_ReadMem(4 bytes @ 0xE0001028) - Data: 00 00 00 00  returns 0x01 (0000ms, 0340ms total)
T123E0 005:493 JLINK_ReadMemU32(0xE0001038, 0x0001 Items, ...) -- CPU_ReadMem(4 bytes @ 0xE0001038) - Data: 00 02 00 00  returns 0x01 (0001ms, 0341ms total)
T123E0 005:494 JLINK_ReadMemU32(0xE0001048, 0x0001 Items, ...) -- CPU_ReadMem(4 bytes @ 0xE0001048) - Data: 00 00 00 00  returns 0x01 (0001ms, 0342ms total)
T123E0 005:495 JLINK_ReadMemU32(0xE0001058, 0x0001 Items, ...) -- CPU_ReadMem(4 bytes @ 0xE0001058) - Data: 00 00 00 00  returns 0x01 (0000ms, 0342ms total)
T123E0 005:496 JLINK_ReadReg(R0)  returns 0x40020800 (0000ms, 0343ms total)
T123E0 005:496 JLINK_ReadReg(R1)  returns 0x20000660 (0000ms, 0343ms total)
T123E0 005:496 JLINK_ReadReg(R2)  returns 0x00000000 (0000ms, 0343ms total)
T123E0 005:496 JLINK_ReadReg(R3)  returns 0x00000010 (0000ms, 0343ms total)
T123E0 005:496 JLINK_ReadReg(R4)  returns 0x00000000 (0000ms, 0343ms total)
T123E0 005:496 JLINK_ReadReg(R5)  returns 0x00000001 (0000ms, 0343ms total)
T123E0 005:496 JLINK_ReadReg(R6)  returns 0x00000003 (0001ms, 0344ms total)
T123E0 005:497 JLINK_ReadReg(R7)  returns 0x00000000 (0000ms, 0344ms total)
T123E0 005:497 JLINK_ReadReg(R8)  returns 0x00000000 (0000ms, 0344ms total)
T123E0 005:497 JLINK_ReadReg(R9)  returns 0x00000000 (0000ms, 0344ms total)
T123E0 005:497 JLINK_ReadReg(R10)  returns 0x0800068C (0000ms, 0344ms total)
T123E0 005:497 JLINK_ReadReg(R11)  returns 0x00000000 (0000ms, 0344ms total)
T123E0 005:497 JLINK_ReadReg(R12)  returns 0x00000000 (0000ms, 0344ms total)
T123E0 005:497 JLINK_ReadReg(R13 (SP))  returns 0x20000660 (0000ms, 0344ms total)
T123E0 005:498 JLINK_ReadReg(R14)  returns 0x30000000 (0000ms, 0345ms total)
T123E0 005:498 JLINK_ReadReg(R15 (PC))  returns 0x08000462 (0000ms, 0345ms total)
T123E0 005:498 JLINK_ReadReg(XPSR)  returns 0x61000000 (0000ms, 0345ms total)
T123E0 005:498 JLINK_ReadReg(MSP)  returns 0x20000660 (0000ms, 0345ms total)
T123E0 005:498 JLINK_ReadReg(PSP)  returns 0x00000000 (0000ms, 0345ms total)
T123E0 005:498 JLINK_ReadReg(CFBP)  returns 0x04000000 (0000ms, 0345ms total)
T123E0 005:498 JLINK_ReadReg(FPSCR)  returns 0x03000000 (0005ms, 0350ms total)
T123E0 005:503 JLINK_ReadReg(FPS0)  returns 0x00000000 (0000ms, 0350ms total)
T123E0 005:503 JLINK_ReadReg(FPS1)  returns 0x00000000 (0000ms, 0350ms total)
T123E0 005:503 JLINK_ReadReg(FPS2)  returns 0x00000000 (0000ms, 0350ms total)
T123E0 005:503 JLINK_ReadReg(FPS3)  returns 0x00000000 (0000ms, 0350ms total)
T123E0 005:503 JLINK_ReadReg(FPS4)  returns 0x00000000 (0001ms, 0351ms total)
T123E0 005:504 JLINK_ReadReg(FPS5)  returns 0x00000000 (0000ms, 0351ms total)
T123E0 005:504 JLINK_ReadReg(FPS6)  returns 0x00000000 (0000ms, 0351ms total)
T123E0 005:504 JLINK_ReadReg(FPS7)  returns 0x00000000 (0000ms, 0351ms total)
T123E0 005:504 JLINK_ReadReg(FPS8)  returns 0x00000000 (0000ms, 0351ms total)
T123E0 005:504 JLINK_ReadReg(FPS9)  returns 0x00000000 (0000ms, 0351ms total)
T123E0 005:504 JLINK_ReadReg(FPS10)  returns 0x00000000 (0000ms, 0351ms total)
T123E0 005:504 JLINK_ReadReg(FPS11)  returns 0x00000000 (0001ms, 0352ms total)
T123E0 005:505 JLINK_ReadReg(FPS12)  returns 0x00000000 (0000ms, 0352ms total)
T123E0 005:505 JLINK_ReadReg(FPS13)  returns 0x00000000 (0000ms, 0352ms total)
T123E0 005:505 JLINK_ReadReg(FPS14)  returns 0x00000000 (0000ms, 0352ms total)
T123E0 005:505 JLINK_ReadReg(FPS15)  returns 0x00000000 (0000ms, 0352ms total)
T123E0 005:505 JLINK_ReadReg(FPS16)  returns 0x00000000 (0000ms, 0352ms total)
T123E0 005:505 JLINK_ReadReg(FPS17)  returns 0x00000000 (0000ms, 0352ms total)
T123E0 005:506 JLINK_ReadReg(FPS18)  returns 0x00000000 (0000ms, 0353ms total)
T123E0 005:506 JLINK_ReadReg(FPS19)  returns 0x00000000 (0000ms, 0353ms total)
T123E0 005:506 JLINK_ReadReg(FPS20)  returns 0x00000000 (0000ms, 0353ms total)
T123E0 005:506 JLINK_ReadReg(FPS21)  returns 0x00000000 (0000ms, 0353ms total)
T123E0 005:506 JLINK_ReadReg(FPS22)  returns 0x00000000 (0000ms, 0353ms total)
T123E0 005:506 JLINK_ReadReg(FPS23)  returns 0x00000000 (0000ms, 0353ms total)
T123E0 005:506 JLINK_ReadReg(FPS24)  returns 0x00000000 (0001ms, 0354ms total)
T123E0 005:507 JLINK_ReadReg(FPS25)  returns 0x00000000 (0000ms, 0354ms total)
T123E0 005:507 JLINK_ReadReg(FPS26)  returns 0x00000000 (0000ms, 0354ms total)
T123E0 005:507 JLINK_ReadReg(FPS27)  returns 0x00000000 (0000ms, 0354ms total)
T123E0 005:507 JLINK_ReadReg(FPS28)  returns 0x00000000 (0000ms, 0354ms total)
T123E0 005:507 JLINK_ReadReg(FPS29)  returns 0x00000000 (0000ms, 0354ms total)
T123E0 005:507 JLINK_ReadReg(FPS30)  returns 0x00000000 (0000ms, 0354ms total)
T123E0 005:507 JLINK_ReadReg(FPS31)  returns 0x00000000 (0001ms, 0355ms total)
TD024 005:508 JLINK_ReadMem (0x20000674, 0x0004 Bytes, ...) -- CPU_ReadMem(64 bytes @ 0x20000640) -- Updating C cache (64 bytes @ 0x20000640) -- Read from C cache (4 bytes @ 0x20000674) - Data: 3F 06 00 08  returns 0x00 (0001ms, 0356ms total)
TD024 005:509 JLINK_ReadMem (0x20000668, 0x0004 Bytes, ...) -- Read from C cache (4 bytes @ 0x20000668) - Data: 00 00 00 00  returns 0x00 (0000ms, 0356ms total)
TD024 005:509 JLINK_ReadMem (0x2000066C, 0x0004 Bytes, ...) -- Read from C cache (4 bytes @ 0x2000066C) - Data: 14 00 00 20  returns 0x00 (0000ms, 0356ms total)
TD024 005:509 JLINK_ReadMem (0x20000670, 0x0004 Bytes, ...) -- Read from C cache (4 bytes @ 0x20000670) - Data: 00 00 00 00  returns 0x00 (0000ms, 0356ms total)
TD024 005:511 JLINK_ReadMem (0x00000000, 0x0001 Bytes, ...) -- CPU_ReadMem(4 bytes @ 0x00000004) -- CPU_ReadMem(64 bytes @ 0x08000000) -- Updating C cache (64 bytes @ 0x08000000) -- Read from C cache (1 bytes @ 0x08000000) - Data: 78  returns 0x00 (0003ms, 0359ms total)
TD024 005:514 JLINK_ReadMem (0x40020818, 0x00EA Bytes, ...) -- CPU_ReadMem(234 bytes @ 0x40020818) - Data: 00 00 00 00 00 00 00 00 00 00 00 00 00 00 00 00 ...  returns 0x00 (0002ms, 0361ms total)
TD024 005:517 JLINK_ReadMem (0x40020000, 0x0014 Bytes, ...) -- CPU_ReadMem(20 bytes @ 0x40020000) - Data: 00 00 14 A8 00 00 00 00 00 00 3C 0C 00 00 00 64 ...  returns 0x00 (0001ms, 0362ms total)
TD024 005:518 JLINK_ReadMem (0x40020014, 0x0004 Bytes, ...) -- CPU_ReadMem(4 bytes @ 0x40020014) - Data: 00 00 00 00  returns 0x00 (0001ms, 0363ms total)
TD024 005:519 JLINK_ReadMem (0x4002001C, 0x0008 Bytes, ...) -- CPU_ReadMem(8 bytes @ 0x4002001C) - Data: 00 00 00 00 00 00 00 00  returns 0x00 (0001ms, 0364ms total)
TD024 005:520 JLINK_ReadMem (0x40020024, 0x0004 Bytes, ...) -- CPU_ReadMem(4 bytes @ 0x40020024) - Data: 00 00 00 00  returns 0x00 (0000ms, 0364ms total)
TD024 005:560 JLINK_ReadMem (0x40023800, 0x0018 Bytes, ...) -- CPU_ReadMem(24 bytes @ 0x40023800) - Data: 83 84 03 03 08 54 40 07 0A 94 00 00 00 00 00 00 ...  returns 0x00 (0000ms, 0364ms total)
TD024 005:561 JLINK_ReadMem (0x40023818, 0x0004 Bytes, ...) -- CPU_ReadMem(4 bytes @ 0x40023818) - Data: 00 00 00 00  returns 0x00 (0000ms, 0365ms total)
TD024 005:561 JLINK_ReadMem (0x40023820, 0x0004 Bytes, ...) -- CPU_ReadMem(4 bytes @ 0x40023820) - Data: 00 00 00 00  returns 0x00 (0001ms, 0366ms total)
TD024 005:562 JLINK_ReadMem (0x40023824, 0x0004 Bytes, ...) -- CPU_ReadMem(4 bytes @ 0x40023824) - Data: 00 00 00 00  returns 0x00 (0001ms, 0367ms total)
TD024 005:563 JLINK_ReadMem (0x40023830, 0x0008 Bytes, ...) -- CPU_ReadMem(8 bytes @ 0x40023830) - Data: 07 00 10 00 00 00 00 00  returns 0x00 (0001ms, 0368ms total)
TD024 005:564 JLINK_ReadMem (0x40023838, 0x0004 Bytes, ...) -- CPU_ReadMem(4 bytes @ 0x40023838) - Data: 00 00 00 00  returns 0x00 (0000ms, 0368ms total)
TD024 005:564 JLINK_ReadMem (0x40023840, 0x0004 Bytes, ...) -- CPU_ReadMem(4 bytes @ 0x40023840) - Data: 00 00 00 10  returns 0x00 (0001ms, 0369ms total)
TD024 005:565 JLINK_ReadMem (0x40023844, 0x0004 Bytes, ...) -- CPU_ReadMem(4 bytes @ 0x40023844) - Data: 00 00 00 00  returns 0x00 (0001ms, 0370ms total)
TD024 005:566 JLINK_ReadMem (0x40023850, 0x0008 Bytes, ...) -- CPU_ReadMem(8 bytes @ 0x40023850) - Data: FF 91 67 7E F1 00 00 00  returns 0x00 (0000ms, 0370ms total)
TD024 005:567 JLINK_ReadMem (0x40023858, 0x0004 Bytes, ...) -- CPU_ReadMem(4 bytes @ 0x40023858) - Data: 01 00 00 00  returns 0x00 (0000ms, 0370ms total)
TD024 005:567 JLINK_ReadMem (0x40023860, 0x0004 Bytes, ...) -- CPU_ReadMem(4 bytes @ 0x40023860) - Data: FF C9 FE 36  returns 0x00 (0001ms, 0371ms total)
TD024 005:568 JLINK_ReadMem (0x40023864, 0x0004 Bytes, ...) -- CPU_ReadMem(4 bytes @ 0x40023864) - Data: 33 5F 07 00  returns 0x00 (0001ms, 0372ms total)
TD024 005:569 JLINK_ReadMem (0x40023870, 0x0004 Bytes, ...) -- CPU_ReadMem(4 bytes @ 0x40023870) - Data: 00 00 00 00  returns 0x00 (0001ms, 0373ms total)
TD024 005:570 JLINK_ReadMem (0x40023874, 0x0004 Bytes, ...) -- CPU_ReadMem(4 bytes @ 0x40023874) - Data: 00 00 00 1E  returns 0x00 (0000ms, 0373ms total)
TD024 005:570 JLINK_ReadMem (0x40023880, 0x0004 Bytes, ...) -- CPU_ReadMem(4 bytes @ 0x40023880) - Data: 00 00 00 00  returns 0x00 (0001ms, 0374ms total)
TD024 005:571 JLINK_ReadMem (0x40023884, 0x0004 Bytes, ...) -- CPU_ReadMem(4 bytes @ 0x40023884) - Data: 00 30 00 20  returns 0x00 (0001ms, 0375ms total)
TD024 005:576 JLINK_ReadMem (0x40020800, 0x0014 Bytes, ...) -- CPU_ReadMem(20 bytes @ 0x40020800) - Data: 00 00 00 50 00 00 00 00 00 00 00 F0 00 00 00 00 ...  returns 0x00 (0001ms, 0376ms total)
TD024 005:577 JLINK_ReadMem (0x40020814, 0x0004 Bytes, ...) -- CPU_ReadMem(4 bytes @ 0x40020814) - Data: 00 00 00 00  returns 0x00 (0000ms, 0376ms total)
TD024 005:578 JLINK_ReadMem (0x4002081C, 0x0008 Bytes, ...) -- CPU_ReadMem(8 bytes @ 0x4002081C) - Data: 00 00 00 00 00 00 00 00  returns 0x00 (0000ms, 0377ms total)
TD024 005:578 JLINK_ReadMem (0x40020824, 0x0004 Bytes, ...) -- CPU_ReadMem(4 bytes @ 0x40020824) - Data: 00 00 00 00  returns 0x00 (0001ms, 0378ms total)
TD024 005:587 JLINK_ReadMem (0x0800045A, 0x0002 Bytes, ...) -- CPU_ReadMem(64 bytes @ 0x08000440) -- Updating C cache (64 bytes @ 0x08000440) -- Read from C cache (2 bytes @ 0x0800045A) - Data: 69 46  returns 0x00 (0001ms, 0379ms total)
TD024 005:588 JLINK_ReadMem (0x0800045C, 0x003C Bytes, ...) -- CPU_ReadMem(64 bytes @ 0x08000480) -- Updating C cache (64 bytes @ 0x08000480) -- Read from C cache (60 bytes @ 0x0800045C) - Data: 0E 48 FF F7 4A FF 00 20 FF F7 BA FF 01 20 FF F7 ...  returns 0x00 (0001ms, 0380ms total)
T123E0 006:352 JLINK_Step() -- Read from C cache (2 bytes @ 0x08000462) -- CPU_ReadMem(4 bytes @ 0xE000ED18) -- CPU_WriteMem(4 bytes @ 0xE000ED18) -- CPU_ReadMem(4 bytes @ 0xE000ED18) -- CPU_WriteMem(4 bytes @ 0xE000ED18) -- CPU_ReadMem(4 bytes @ 0xE0001004) -- Simulated  returns 0x00 (0003ms, 0383ms total)
T123E0 006:355 JLINK_ReadReg(R15 (PC))  returns 0x08000464 (0000ms, 0383ms total)
T123E0 006:355 JLINK_ReadReg(XPSR)  returns 0x61000000 (0001ms, 0384ms total)
T123E0 006:356 JLINK_SetBPEx(Addr = 0x08000462, Type = 0xFFFFFFF2)  returns 0x00000008 (0000ms, 0384ms total)
T123E0 006:356 JLINK_SetBPEx(Addr = 0x0800063E, Type = 0xFFFFFFF2)  returns 0x00000009 (0000ms, 0384ms total)
T123E0 006:356 JLINK_SetBPEx(Addr = 0x0800064C, Type = 0xFFFFFFF2)  returns 0x0000000A (0000ms, 0384ms total)
T123E0 006:356 JLINK_Go() -- CPU_ReadMem(4 bytes @ 0xE0001000) -- CPU_WriteMem(4 bytes @ 0xE0001004) (0002ms, 0386ms total)
T123E0 006:459 JLINK_IsHalted()  returns TRUE (0003ms, 0389ms total)
T123E0 006:462 JLINK_Halt()  returns 0x00 (0000ms, 0386ms total)
T123E0 006:462 JLINK_IsHalted()  returns TRUE (0000ms, 0386ms total)
T123E0 006:462 JLINK_IsHalted()  returns TRUE (0000ms, 0386ms total)
T123E0 006:462 JLINK_IsHalted()  returns TRUE (0000ms, 0386ms total)
T123E0 006:462 JLINK_ReadReg(R15 (PC))  returns 0x0800063E (0000ms, 0386ms total)
T123E0 006:462 JLINK_ReadReg(XPSR)  returns 0x21000000 (0000ms, 0386ms total)
T123E0 006:462 JLINK_ClrBPEx(BPHandle = 0x00000008)  returns 0x00 (0001ms, 0387ms total)
T123E0 006:463 JLINK_ClrBPEx(BPHandle = 0x00000009)  returns 0x00 (0000ms, 0387ms total)
T123E0 006:463 JLINK_ClrBPEx(BPHandle = 0x0000000A)  returns 0x00 (0000ms, 0387ms total)
T123E0 006:463 JLINK_ReadMemU32(0xE000ED30, 0x0001 Items, ...) -- CPU_ReadMem(4 bytes @ 0xE000ED30) - Data: 03 00 00 00  returns 0x01 (0001ms, 0388ms total)
T123E0 006:464 JLINK_ReadMemU32(0xE0001028, 0x0001 Items, ...) -- CPU_ReadMem(4 bytes @ 0xE0001028) - Data: 00 00 00 00  returns 0x01 (0000ms, 0388ms total)
T123E0 006:464 JLINK_ReadMemU32(0xE0001038, 0x0001 Items, ...) -- CPU_ReadMem(4 bytes @ 0xE0001038) - Data: 00 02 00 00  returns 0x01 (0001ms, 0389ms total)
T123E0 006:465 JLINK_ReadMemU32(0xE0001048, 0x0001 Items, ...) -- CPU_ReadMem(4 bytes @ 0xE0001048) - Data: 00 00 00 00  returns 0x01 (0001ms, 0390ms total)
T123E0 006:466 JLINK_ReadMemU32(0xE0001058, 0x0001 Items, ...) -- CPU_ReadMem(4 bytes @ 0xE0001058) - Data: 00 00 00 00  returns 0x01 (0000ms, 0390ms total)
T123E0 006:467 JLINK_ReadReg(R0)  returns 0x40020800 (0000ms, 0391ms total)
T123E0 006:467 JLINK_ReadReg(R1)  returns 0x00008000 (0000ms, 0391ms total)
T123E0 006:467 JLINK_ReadReg(R2)  returns 0x0000C000 (0000ms, 0391ms total)
T123E0 006:467 JLINK_ReadReg(R3)  returns 0x00000301 (0000ms, 0391ms total)
T123E0 006:467 JLINK_ReadReg(R4)  returns 0x00000000 (0000ms, 0391ms total)
T123E0 006:467 JLINK_ReadReg(R5)  returns 0x20000014 (0000ms, 0391ms total)
T123E0 006:467 JLINK_ReadReg(R6)  returns 0x00000000 (0001ms, 0392ms total)
T123E0 006:468 JLINK_ReadReg(R7)  returns 0x00000000 (0000ms, 0392ms total)
T123E0 006:468 JLINK_ReadReg(R8)  returns 0x00000000 (0000ms, 0392ms total)
T123E0 006:468 JLINK_ReadReg(R9)  returns 0x00000000 (0000ms, 0392ms total)
T123E0 006:468 JLINK_ReadReg(R10)  returns 0x0800068C (0000ms, 0392ms total)
T123E0 006:468 JLINK_ReadReg(R11)  returns 0x00000000 (0000ms, 0392ms total)
T123E0 006:468 JLINK_ReadReg(R12)  returns 0x00000000 (0000ms, 0392ms total)
T123E0 006:469 JLINK_ReadReg(R13 (SP))  returns 0x20000678 (0000ms, 0393ms total)
T123E0 006:469 JLINK_ReadReg(R14)  returns 0x08000493 (0000ms, 0393ms total)
T123E0 006:469 JLINK_ReadReg(R15 (PC))  returns 0x0800063E (0000ms, 0393ms total)
T123E0 006:469 JLINK_ReadReg(XPSR)  returns 0x21000000 (0000ms, 0393ms total)
T123E0 006:469 JLINK_ReadReg(MSP)  returns 0x20000678 (0000ms, 0393ms total)
T123E0 006:469 JLINK_ReadReg(PSP)  returns 0x00000000 (0000ms, 0393ms total)
T123E0 006:469 JLINK_ReadReg(CFBP)  returns 0x04000000 (0000ms, 0393ms total)
T123E0 006:470 JLINK_ReadReg(FPSCR)  returns 0x03000000 (0004ms, 0398ms total)
T123E0 006:474 JLINK_ReadReg(FPS0)  returns 0x00000000 (0000ms, 0398ms total)
T123E0 006:474 JLINK_ReadReg(FPS1)  returns 0x00000000 (0000ms, 0398ms total)
T123E0 006:474 JLINK_ReadReg(FPS2)  returns 0x00000000 (0001ms, 0399ms total)
T123E0 006:475 JLINK_ReadReg(FPS3)  returns 0x00000000 (0000ms, 0399ms total)
T123E0 006:475 JLINK_ReadReg(FPS4)  returns 0x00000000 (0000ms, 0399ms total)
T123E0 006:475 JLINK_ReadReg(FPS5)  returns 0x00000000 (0000ms, 0399ms total)
T123E0 006:475 JLINK_ReadReg(FPS6)  returns 0x00000000 (0000ms, 0399ms total)
T123E0 006:475 JLINK_ReadReg(FPS7)  returns 0x00000000 (0000ms, 0399ms total)
T123E0 006:475 JLINK_ReadReg(FPS8)  returns 0x00000000 (0000ms, 0399ms total)
T123E0 006:475 JLINK_ReadReg(FPS9)  returns 0x00000000 (0001ms, 0400ms total)
T123E0 006:476 JLINK_ReadReg(FPS10)  returns 0x00000000 (0000ms, 0400ms total)
T123E0 006:476 JLINK_ReadReg(FPS11)  returns 0x00000000 (0000ms, 0400ms total)
T123E0 006:476 JLINK_ReadReg(FPS12)  returns 0x00000000 (0000ms, 0400ms total)
T123E0 006:476 JLINK_ReadReg(FPS13)  returns 0x00000000 (0000ms, 0400ms total)
T123E0 006:476 JLINK_ReadReg(FPS14)  returns 0x00000000 (0000ms, 0400ms total)
T123E0 006:476 JLINK_ReadReg(FPS15)  returns 0x00000000 (0000ms, 0400ms total)
T123E0 006:476 JLINK_ReadReg(FPS16)  returns 0x00000000 (0001ms, 0401ms total)
T123E0 006:477 JLINK_ReadReg(FPS17)  returns 0x00000000 (0000ms, 0401ms total)
T123E0 006:477 JLINK_ReadReg(FPS18)  returns 0x00000000 (0000ms, 0401ms total)
T123E0 006:477 JLINK_ReadReg(FPS19)  returns 0x00000000 (0000ms, 0401ms total)
T123E0 006:477 JLINK_ReadReg(FPS20)  returns 0x00000000 (0000ms, 0401ms total)
T123E0 006:477 JLINK_ReadReg(FPS21)  returns 0x00000000 (0000ms, 0401ms total)
T123E0 006:477 JLINK_ReadReg(FPS22)  returns 0x00000000 (0000ms, 0401ms total)
T123E0 006:477 JLINK_ReadReg(FPS23)  returns 0x00000000 (0001ms, 0402ms total)
T123E0 006:478 JLINK_ReadReg(FPS24)  returns 0x00000000 (0000ms, 0402ms total)
T123E0 006:478 JLINK_ReadReg(FPS25)  returns 0x00000000 (0000ms, 0402ms total)
T123E0 006:478 JLINK_ReadReg(FPS26)  returns 0x00000000 (0000ms, 0402ms total)
T123E0 006:478 JLINK_ReadReg(FPS27)  returns 0x00000000 (0000ms, 0402ms total)
T123E0 006:478 JLINK_ReadReg(FPS28)  returns 0x00000000 (0000ms, 0402ms total)
T123E0 006:478 JLINK_ReadReg(FPS29)  returns 0x00000000 (0000ms, 0402ms total)
T123E0 006:478 JLINK_ReadReg(FPS30)  returns 0x00000000 (0001ms, 0403ms total)
T123E0 006:479 JLINK_ReadReg(FPS31)  returns 0x00000000 (0000ms, 0403ms total)
TD024 006:481 JLINK_ReadMem (0x00000000, 0x0001 Bytes, ...) -- CPU_ReadMem(4 bytes @ 0x00000004) -- CPU_ReadMem(64 bytes @ 0x08000000) -- Updating C cache (64 bytes @ 0x08000000) -- Read from C cache (1 bytes @ 0x08000000) - Data: 78  returns 0x00 (0002ms, 0405ms total)
TD024 006:483 JLINK_ReadMem (0x40020818, 0x00EA Bytes, ...) -- CPU_ReadMem(234 bytes @ 0x40020818) - Data: 00 00 00 00 00 00 00 00 00 00 00 00 00 00 00 00 ...  returns 0x00 (0002ms, 0407ms total)
TD024 006:487 JLINK_ReadMem (0x40020000, 0x0014 Bytes, ...) -- CPU_ReadMem(20 bytes @ 0x40020000) - Data: 00 00 14 A8 00 00 00 00 00 00 3C 0C 00 00 00 64 ...  returns 0x00 (0000ms, 0407ms total)
TD024 006:487 JLINK_ReadMem (0x40020014, 0x0004 Bytes, ...) -- CPU_ReadMem(4 bytes @ 0x40020014) - Data: 00 00 00 00  returns 0x00 (0001ms, 0408ms total)
TD024 006:488 JLINK_ReadMem (0x4002001C, 0x0008 Bytes, ...) -- CPU_ReadMem(8 bytes @ 0x4002001C) - Data: 00 00 00 00 00 00 00 00  returns 0x00 (0001ms, 0409ms total)
TD024 006:489 JLINK_ReadMem (0x40020024, 0x0004 Bytes, ...) -- CPU_ReadMem(4 bytes @ 0x40020024) - Data: 00 00 00 00  returns 0x00 (0001ms, 0410ms total)
TD024 006:495 JLINK_ReadMem (0x40023800, 0x0018 Bytes, ...) -- CPU_ReadMem(24 bytes @ 0x40023800) - Data: 83 84 03 03 08 54 40 07 0A 94 00 00 00 00 00 00 ...  returns 0x00 (0001ms, 0411ms total)
TD024 006:496 JLINK_ReadMem (0x40023818, 0x0004 Bytes, ...) -- CPU_ReadMem(4 bytes @ 0x40023818) - Data: 00 00 00 00  returns 0x00 (0001ms, 0412ms total)
TD024 006:497 JLINK_ReadMem (0x40023820, 0x0004 Bytes, ...) -- CPU_ReadMem(4 bytes @ 0x40023820) - Data: 00 00 00 00  returns 0x00 (0001ms, 0413ms total)
TD024 006:498 JLINK_ReadMem (0x40023824, 0x0004 Bytes, ...) -- CPU_ReadMem(4 bytes @ 0x40023824) - Data: 00 00 00 00  returns 0x00 (0000ms, 0413ms total)
TD024 006:498 JLINK_ReadMem (0x40023830, 0x0008 Bytes, ...) -- CPU_ReadMem(8 bytes @ 0x40023830) - Data: 07 00 10 00 00 00 00 00  returns 0x00 (0001ms, 0414ms total)
TD024 006:499 JLINK_ReadMem (0x40023838, 0x0004 Bytes, ...) -- CPU_ReadMem(4 bytes @ 0x40023838) - Data: 00 00 00 00  returns 0x00 (0001ms, 0415ms total)
TD024 006:500 JLINK_ReadMem (0x40023840, 0x0004 Bytes, ...) -- CPU_ReadMem(4 bytes @ 0x40023840) - Data: 00 00 00 10  returns 0x00 (0001ms, 0416ms total)
TD024 006:501 JLINK_ReadMem (0x40023844, 0x0004 Bytes, ...) -- CPU_ReadMem(4 bytes @ 0x40023844) - Data: 00 00 00 00  returns 0x00 (0000ms, 0416ms total)
TD024 006:501 JLINK_ReadMem (0x40023850, 0x0008 Bytes, ...) -- CPU_ReadMem(8 bytes @ 0x40023850) - Data: FF 91 67 7E F1 00 00 00  returns 0x00 (0001ms, 0417ms total)
TD024 006:502 JLINK_ReadMem (0x40023858, 0x0004 Bytes, ...) -- CPU_ReadMem(4 bytes @ 0x40023858) - Data: 01 00 00 00  returns 0x00 (0001ms, 0418ms total)
TD024 006:503 JLINK_ReadMem (0x40023860, 0x0004 Bytes, ...) -- CPU_ReadMem(4 bytes @ 0x40023860) - Data: FF C9 FE 36  returns 0x00 (0000ms, 0418ms total)
TD024 006:503 JLINK_ReadMem (0x40023864, 0x0004 Bytes, ...) -- CPU_ReadMem(4 bytes @ 0x40023864) - Data: 33 5F 07 00  returns 0x00 (0001ms, 0419ms total)
TD024 006:504 JLINK_ReadMem (0x40023870, 0x0004 Bytes, ...) -- CPU_ReadMem(4 bytes @ 0x40023870) - Data: 00 00 00 00  returns 0x00 (0001ms, 0420ms total)
TD024 006:505 JLINK_ReadMem (0x40023874, 0x0004 Bytes, ...) -- CPU_ReadMem(4 bytes @ 0x40023874) - Data: 00 00 00 1E  returns 0x00 (0000ms, 0420ms total)
TD024 006:506 JLINK_ReadMem (0x40023880, 0x0004 Bytes, ...) -- CPU_ReadMem(4 bytes @ 0x40023880) - Data: 00 00 00 00  returns 0x00 (0000ms, 0421ms total)
TD024 006:506 JLINK_ReadMem (0x40023884, 0x0004 Bytes, ...) -- CPU_ReadMem(4 bytes @ 0x40023884) - Data: 00 30 00 20  returns 0x00 (0001ms, 0422ms total)
